!File created by NanoVNA
# Hz S RI R 50
1000000  0.001805417 -0.038620788
2990000  0.000675294 -0.023889550
4980000  0.000028104 -0.027891602
6970000 -0.001300255 -0.034655980
8960000 -0.003136928 -0.042371672
10950000 -0.005749855 -0.050552892
12940000 -0.008995208 -0.058926272
14930000 -0.012899564 -0.067422784
16920000 -0.017540528 -0.075777112
18910000 -0.022937564 -0.084048088
20900000 -0.029137042 -0.092260040
22890000 -0.036045588 -0.100021376
24880000 -0.043756928 -0.107425592
26870000 -0.052296912 -0.114446368
28860000 -0.061662788 -0.121187664
30850000 -0.071828024 -0.127025608
32840000 -0.082914296 -0.132525920
34830000 -0.094747464 -0.137304864
36820000 -0.107232480 -0.140967216
38810000 -0.120512448 -0.143445312
40800000 -0.134629648 -0.144594800
42790000 -0.149468112 -0.144209904
44780000 -0.164712720 -0.142385008
46770000 -0.180262656 -0.138402272
48760000 -0.195857472 -0.132324232
50750000 -0.211031792 -0.123906944
52740000 -0.225361072 -0.112951056
54730000 -0.238323920 -0.099332296
56720000 -0.249146640 -0.082675944
58710000 -0.256730048 -0.063057744
60700000 -0.259738096 -0.040951168
62690000 -0.256434976 -0.017119602
64680000 -0.244853664  0.006765967
66670000 -0.222973488  0.027707006
68660000 -0.189340528  0.040482408
70650000 -0.144785296  0.036976132
72640000 -0.095535360  0.006409091
74630000 -0.059131472 -0.060972056
76620000 -0.066789172 -0.160697872
78610000 -0.148805584 -0.255352016
80600000 -0.293179904 -0.276930592
82590000 -0.415885248 -0.180264448
84580000 -0.390215296 -0.024099914
86570000 -0.211972688 -0.029174676
88560000 -0.202866672 -0.309363040
90550000 -0.535994048 -0.379456384
92540000 -0.742469952 -0.200176112
94530000 -0.812305024  0.007815639
96520000 -0.805170880  0.197880544
98510000 -0.748305664  0.364403264
100500000 -0.652100544  0.506537920
102490000 -0.518191680  0.620181952
104480000 -0.343884960  0.689785536
106470000 -0.152847232  0.677163968
108460000  0.011653516  0.611113024
110450000  0.134886384  0.440999328
112440000  0.086118264  0.277537280
114430000  0.012812911  0.257029952
116420000  0.017099370  0.269747904
118410000  0.051237936  0.249547008
120400000  0.075026928  0.202178160
122390000  0.076659104  0.146670752
124380000  0.058805604  0.096909272
126370000  0.028729370  0.059538996
128360000 -0.006346515  0.035885028
130350000 -0.041569444  0.024496052
132340000 -0.073022832  0.022268376
134330000 -0.100253440  0.026956724
136320000 -0.122663448  0.036056760
138310000 -0.139809760  0.047640456
140300000 -0.152927984  0.060675472
142290000 -0.162490832  0.074286200
144280000 -0.168790544  0.087797632
146270000 -0.172578400  0.100789656
148260000 -0.174304048  0.113163360
150250000 -0.174334640  0.124770888
152240000 -0.172909968  0.135452800
154230000 -0.170441744  0.145303728
156220000 -0.167133440  0.154345520
158210000 -0.163044560  0.162439184
160200000 -0.158502880  0.169882016
162190000 -0.153574544  0.176580352
164180000 -0.148320816  0.182630064
166170000 -0.142756864  0.188046672
168160000 -0.137130752  0.192901248
170150000 -0.131356552  0.197221824
172140000 -0.125487816  0.201036704
174130000 -0.119616920  0.204403744
176120000 -0.113699936  0.207470928
178110000 -0.107879296  0.210014912
180100000 -0.101991960  0.212234736
182090000 -0.096139288  0.214280992
184080000 -0.090507728  0.215967616
186070000 -0.084695936  0.217255216
188060000 -0.079099480  0.218355440
190050000 -0.073573712  0.219257328
192040000 -0.068185472  0.219876608
194030000 -0.062864760  0.220413872
196020000 -0.057632388  0.220629952
198010000 -0.052356580  0.220661568
200000000 -0.047258644  0.220634592
