!File created by NanoVNA
# Hz S RI R 50
1000000  0.001557696 -0.038663460  0.993215808  0.024171666 0 0 0 0
2990000  0.000459590 -0.023884256  0.993315776 -0.032300774 0 0 0 0
4980000 -0.000236086 -0.027856468  0.991206656 -0.068098552 0 0 0 0
6970000 -0.001460391 -0.034639560  0.987952000 -0.100784584 0 0 0 0
8960000 -0.003309106 -0.042359196  0.983627712 -0.132352416 0 0 0 0
10950000 -0.005852895 -0.050535340  0.978331328 -0.163559296 0 0 0 0
12940000 -0.009119919 -0.058802720  0.972008576 -0.194512064 0 0 0 0
14930000 -0.013078333 -0.067269800  0.964486080 -0.225672896 0 0 0 0
16920000 -0.017730522 -0.075588840  0.955974720 -0.256432448 0 0 0 0
18910000 -0.023134514 -0.083854760  0.946540800 -0.287909248 0 0 0 0
20900000 -0.029326182 -0.092065472  0.935330496 -0.319248704 0 0 0 0
22890000 -0.036219608 -0.099877496  0.923003968 -0.351088928 0 0 0 0
24880000 -0.043900868 -0.107301920  0.908770048 -0.383868192 0 0 0 0
26870000 -0.052400692 -0.114310232  0.893622656 -0.415624608 0 0 0 0
28860000 -0.061752568 -0.121045104  0.878123840 -0.447480416 0 0 0 0
30850000 -0.071834752 -0.126849368  0.858856704 -0.480773728 0 0 0 0
32840000 -0.082881248 -0.132344712  0.837872256 -0.514487328 0 0 0 0
34830000 -0.094776456 -0.137071248  0.814408128 -0.548918912 0 0 0 0
36820000 -0.107268024 -0.140721680  0.787747136 -0.582672960 0 0 0 0
38810000 -0.120559984 -0.143270032  0.756200192 -0.617245440 0 0 0 0
40800000 -0.134628416 -0.144431536  0.723890816 -0.650006720 0 0 0 0
42790000 -0.149376464 -0.144018560  0.690899456 -0.682679680 0 0 0 0
44780000 -0.164585728 -0.142214816  0.653062016 -0.716302528 0 0 0 0
46770000 -0.180148432 -0.138212096  0.610355136 -0.748964288 0 0 0 0
48760000 -0.195704448 -0.132121088  0.562899264 -0.781246912 0 0 0 0
50750000 -0.210911264 -0.123733864  0.510194656 -0.812342848 0 0 0 0
52740000 -0.225265728 -0.112862536  0.451640544 -0.841499328 0 0 0 0
54730000 -0.238190208 -0.099277816  0.387827520 -0.868548544 0 0 0 0
56720000 -0.248992192 -0.082650480  0.315207712 -0.892535616 0 0 0 0
58710000 -0.256532960 -0.063057104  0.232860800 -0.909614400 0 0 0 0
60700000 -0.259521216 -0.040972944  0.142707552 -0.919731200 0 0 0 0
62690000 -0.256243408 -0.017102756  0.043965192 -0.921026432 0 0 0 0
64680000 -0.244743728  0.006758036 -0.064135908 -0.910202176 0 0 0 0
66670000 -0.222920048  0.027622704 -0.181777744 -0.882807168 0 0 0 0
68660000 -0.189313248  0.040342592 -0.307851808 -0.832615936 0 0 0 0
70650000 -0.144726544  0.036875964 -0.438595712 -0.751787200 0 0 0 0
72640000 -0.095552840  0.006312243 -0.565544128 -0.630903040 0 0 0 0
74630000 -0.059189052 -0.060962132 -0.672078976 -0.461096800 0 0 0 0
76620000 -0.066862084 -0.160600256 -0.730748928 -0.240662240 0 0 0 0
78610000 -0.148897328 -0.255222864 -0.705449984  0.013538767 0 0 0 0
80600000 -0.293231488 -0.276899520 -0.566228288  0.256857904 0 0 0 0
82590000 -0.415907072 -0.180377776 -0.307906656  0.420716672 0 0 0 0
84580000 -0.390255744 -0.024127582  0.034193740  0.402677184 0 0 0 0
86570000 -0.212024224 -0.029037698  0.219998368  0.093679736 0 0 0 0
88560000 -0.202802480 -0.309224448  0.036510860 -0.045586024 0 0 0 0
90550000 -0.535978016 -0.379408768 -0.000763550 -0.006686297 0 0 0 0
92540000 -0.742418048 -0.200076848 -0.001083933 -0.001615686 0 0 0 0
94530000 -0.812285440  0.007871527 -0.001292766 -0.001578014 0 0 0 0
96520000 -0.805056192  0.197869888 -0.001364116 -0.001803284 0 0 0 0
98510000 -0.748213184  0.364416704 -0.001376866 -0.001946045 0 0 0 0
100500000 -0.652038720  0.506604672 -0.001402761 -0.002057267 0 0 0 0
102490000 -0.518105280  0.620270400 -0.000899087 -0.001720381 0 0 0 0
104480000 -0.343930688  0.689764480  0.003193903  0.003217881 0 0 0 0
106470000 -0.152817344  0.677111104  0.049282748  0.013596347 0 0 0 0
108460000  0.011675533  0.611122240  0.125989168 -0.107103312 0 0 0 0
110450000  0.135068096  0.440991840  0.036407248 -0.306667200 0 0 0 0
112440000  0.086276376  0.277480064 -0.242879632 -0.399159200 0 0 0 0
114430000  0.012817195  0.256957504 -0.518747520 -0.259078656 0 0 0 0
116420000  0.017089822  0.269791616 -0.647021952 -0.025876350 0 0 0 0
118410000  0.051249216  0.249641968 -0.669759424  0.193452000 0 0 0 0
120400000  0.075101056  0.202272864 -0.635082752  0.379608672 0 0 0 0
122390000  0.076808624  0.146692688 -0.566281344  0.533028128 0 0 0 0
124380000  0.058997836  0.096889672 -0.476250080  0.655546368 0 0 0 0
126370000  0.028906316  0.059462228 -0.373989824  0.748813184 0 0 0 0
128360000 -0.006153159  0.035826952 -0.267037456  0.815953152 0 0 0 0
130350000 -0.041440380  0.024358680 -0.158273760  0.857191616 0 0 0 0
132340000 -0.072911280  0.022118324 -0.059152932  0.886095232 0 0 0 0
134330000 -0.100202568  0.026711842  0.035545200  0.897501120 0 0 0 0
136320000 -0.122677568  0.035875984  0.124207768  0.896113536 0 0 0 0
138310000 -0.139829232  0.047438612  0.202115120  0.889128704 0 0 0 0
140300000 -0.152975104  0.060530844  0.273417248  0.875133888 0 0 0 0
142290000 -0.162561280  0.074167088  0.337871296  0.855580928 0 0 0 0
144280000 -0.168884672  0.087662328  0.395198752  0.834157952 0 0 0 0
146270000 -0.172671120  0.100698000  0.446865632  0.811063744 0 0 0 0
148260000 -0.174413248  0.113115480  0.492946400  0.785874432 0 0 0 0
150250000 -0.174469808  0.124681376  0.534640736  0.759888960 0 0 0 0
152240000 -0.172995488  0.135374608  0.572388416  0.734149440 0 0 0 0
154230000 -0.170587760  0.145266848  0.606145024  0.707945728 0 0 0 0
156220000 -0.167262704  0.154265856  0.637102464  0.682035648 0 0 0 0
158210000 -0.163204448  0.162406144  0.664466944  0.656679040 0 0 0 0
160200000 -0.158661552  0.169867040  0.689584832  0.631458048 0 0 0 0
162190000 -0.153681520  0.176562432  0.712348928  0.606570112 0 0 0 0
164180000 -0.148405296  0.182618976  0.733079296  0.582434432 0 0 0 0
166170000 -0.142909360  0.188027104  0.752136960  0.558984192 0 0 0 0
168160000 -0.137223536  0.192936512  0.769307200  0.535986240 0 0 0 0
170150000 -0.131460384  0.197281776  0.784994944  0.513462432 0 0 0 0
172140000 -0.125609160  0.201093536  0.799500544  0.491614784 0 0 0 0
174130000 -0.119712248  0.204529904  0.812985280  0.470062880 0 0 0 0
176120000 -0.113826784  0.207635072  0.824855744  0.449584768 0 0 0 0
178110000 -0.107918296  0.210130976  0.836285376  0.429079296 0 0 0 0
180100000 -0.102139440  0.212424288  0.846390464  0.409304096 0 0 0 0
182090000 -0.096298824  0.214394272  0.855870976  0.390106624 0 0 0 0
184080000 -0.090544624  0.216026720  0.864113920  0.371470496 0 0 0 0
186070000 -0.084838200  0.217358096  0.872421504  0.353246752 0 0 0 0
188060000 -0.079165992  0.218519120  0.879273984  0.335620896 0 0 0 0
190050000 -0.073740728  0.219379312  0.886116736  0.318330304 0 0 0 0
192040000 -0.068291088  0.220029440  0.892141376  0.301306400 0 0 0 0
194030000 -0.062864432  0.220380400  0.897774336  0.284746720 0 0 0 0
196020000 -0.057616372  0.220691136  0.903049344  0.268484608 0 0 0 0
198010000 -0.052383072  0.220752560  0.907492608  0.252637744 0 0 0 0
200000000 -0.047302396  0.220609008  0.911985536  0.237157136 0 0 0 0
