!File created by NanoVNA
# Hz S RI R 50
1000000 -0.003381271  0.000512696  0.999247872 -0.032594826 0 0 0 0
2990000 -0.002440960  0.001597337  0.994381696 -0.097514480 0 0 0 0
4980000 -0.001062828  0.003194002  0.985237248 -0.163169360 0 0 0 0
6970000  0.001348008  0.006688860  0.970228864 -0.230534096 0 0 0 0
8960000  0.007582857  0.012959812  0.946448960 -0.300331072 0 0 0 0
10950000  0.021835220  0.018254248  0.909091584 -0.367768544 0 0 0 0
12940000  0.042929192  0.016131737  0.860075648 -0.425428992 0 0 0 0
14930000  0.065838912  0.004693351  0.805316096 -0.471185248 0 0 0 0
16920000  0.086258432 -0.014725071  0.749328192 -0.506547104 0 0 0 0
18910000  0.102227824 -0.039867748  0.694043456 -0.533891264 0 0 0 0
20900000  0.112605256 -0.068288408  0.640360448 -0.555330304 0 0 0 0
22890000  0.117509864 -0.098384496  0.588262272 -0.572173568 0 0 0 0
24880000  0.117376616 -0.128962472  0.537306368 -0.585199936 0 0 0 0
26870000  0.112738656 -0.159144272  0.487046176 -0.594855872 0 0 0 0
28860000  0.104023624 -0.188314784  0.437419360 -0.601014912 0 0 0 0
30850000  0.091890200 -0.216064064  0.388184640 -0.603676480 0 0 0 0
32840000  0.076839216 -0.241797280  0.339316224 -0.602638720 0 0 0 0
34830000  0.059215244 -0.265427088  0.291173632 -0.597885184 0 0 0 0
36820000  0.039551936 -0.287027136  0.244095008 -0.589268864 0 0 0 0
38810000  0.018306488 -0.306533088  0.198372800 -0.576626944 0 0 0 0
40800000 -0.004205782 -0.323890016  0.154588176 -0.560249728 0 0 0 0
42790000 -0.027572140 -0.339241696  0.113384784 -0.540055872 0 0 0 0
44780000 -0.051534748 -0.352784416  0.075160032 -0.516502784 0 0 0 0
46770000 -0.075809456 -0.365024096  0.040178948 -0.489997408 0 0 0 0
48760000 -0.100536960 -0.376238816  0.008666218 -0.461132768 0 0 0 0
50750000 -0.125887960 -0.386691296 -0.019235268 -0.430378592 0 0 0 0
52740000 -0.152059088 -0.396504768 -0.043424392 -0.398227712 0 0 0 0
54730000 -0.179421856 -0.405717696 -0.063955016 -0.365116800 0 0 0 0
56720000 -0.208482128 -0.414586304 -0.080850704 -0.331561312 0 0 0 0
58710000 -0.239636608 -0.422909472 -0.094353952 -0.297836320 0 0 0 0
60700000 -0.273483008 -0.430373280 -0.104530016 -0.264294000 0 0 0 0
62690000 -0.310498176 -0.436590880 -0.111493568 -0.231094960 0 0 0 0
64680000 -0.351285248 -0.440874144 -0.115366984 -0.198436832 0 0 0 0
66670000 -0.396308096 -0.442241280 -0.116072344 -0.166536592 0 0 0 0
68660000 -0.446157920 -0.439465120 -0.113623056 -0.135620416 0 0 0 0
70650000 -0.501139872 -0.431119360 -0.107882648 -0.106165688 0 0 0 0
72640000 -0.561189120 -0.414943552 -0.098767360 -0.078651272 0 0 0 0
74630000 -0.626125248 -0.388534624 -0.086287008 -0.053872396 0 0 0 0
76620000 -0.694553344 -0.348545120 -0.070666984 -0.032852394 0 0 0 0
78610000 -0.763691456 -0.291111520 -0.052832824 -0.016820336 0 0 0 0
80600000 -0.828444928 -0.212071520 -0.034560724 -0.006775694 0 0 0 0
82590000 -0.880454656 -0.108269688 -0.018492968 -0.002781538 0 0 0 0
84580000 -0.906991872  0.020105714 -0.007321735 -0.002772572 0 0 0 0
86570000 -0.892513664  0.165495328 -0.001685227 -0.002786932 0 0 0 0
88560000 -0.823987264  0.309006464  0.001915200  0.000639061 0 0 0 0
90550000 -0.701265536  0.420614112  0.008408890  0.005578130 0 0 0 0
92540000 -0.546745536  0.471478112  0.017600298  0.006218248 0 0 0 0
94530000 -0.399016000  0.453241280  0.023299646  0.000622478 0 0 0 0
96520000 -0.291247680  0.384740448  0.021417432 -0.006212441 0 0 0 0
98510000 -0.234966528  0.297066496  0.014268876 -0.008883142 0 0 0 0
100500000 -0.222928656  0.215781808  0.007027970 -0.006605115 0 0 0 0
102490000 -0.240167984  0.155020368  0.002560440 -0.002748862 0 0 0 0
104480000 -0.271324832  0.118981200 -0.000043888 -0.001234902 0 0 0 0
106470000 -0.304170176  0.105306584 -0.004402832 -0.003612765 0 0 0 0
108460000 -0.330794688  0.107829328 -0.014115796 -0.008358266 0 0 0 0
110450000 -0.348014048  0.119488808 -0.030769308 -0.011793089 0 0 0 0
112440000 -0.356109120  0.134289488 -0.053307308 -0.010225989 0 0 0 0
114430000 -0.357459872  0.148342304 -0.079022680 -0.001428455 0 0 0 0
116420000 -0.354743072  0.160132240 -0.104764152  0.014999791 0 0 0 0
118410000 -0.350080512  0.169412880 -0.128114520  0.038253540 0 0 0 0
120400000 -0.344913920  0.176690656 -0.147465232  0.066772408 0 0 0 0
122390000 -0.340025888  0.182587632 -0.162026416  0.099026064 0 0 0 0
124380000 -0.335571168  0.187809936 -0.171536576  0.133584040 0 0 0 0
126370000 -0.331618016  0.192830528 -0.176105184  0.169198960 0 0 0 0
128360000 -0.327933216  0.197908720 -0.176085648  0.205072240 0 0 0 0
130350000 -0.325282816  0.203863632 -0.168826768  0.238128592 0 0 0 0
132340000 -0.320843712  0.208928800 -0.163719440  0.274467520 0 0 0 0
134330000 -0.317026944  0.214712608 -0.152620960  0.307118880 0 0 0 0
136320000 -0.313347296  0.221266208 -0.136592736  0.336926816 0 0 0 0
138310000 -0.308442944  0.227130464 -0.121503744  0.367573216 0 0 0 0
140300000 -0.303526816  0.233424016 -0.102934960  0.395042048 0 0 0 0
142290000 -0.298210176  0.239780080 -0.081961800  0.419624640 0 0 0 0
144280000 -0.292359776  0.245936656 -0.060254156  0.443049440 0 0 0 0
146270000 -0.286175328  0.251921360 -0.037460880  0.464643424 0 0 0 0
148260000 -0.279469984  0.257736560 -0.013103471  0.483199712 0 0 0 0
150250000 -0.272500576  0.263121808  0.011939168  0.500050144 0 0 0 0
152240000 -0.265291872  0.268243936  0.037046924  0.515430976 0 0 0 0
154230000 -0.257727024  0.272990208  0.062945708  0.528497344 0 0 0 0
156220000 -0.249933632  0.277368352  0.089049384  0.539697984 0 0 0 0
158210000 -0.242059392  0.281117024  0.114696416  0.549502976 0 0 0 0
160200000 -0.233923456  0.284736576  0.140656464  0.557639872 0 0 0 0
162190000 -0.225861472  0.288058208  0.166680000  0.563799360 0 0 0 0
164180000 -0.217498160  0.290712128  0.192005552  0.569120256 0 0 0 0
166170000 -0.209416512  0.293201376  0.217361152  0.572777408 0 0 0 0
168160000 -0.201160608  0.295166816  0.242152016  0.575114624 0 0 0 0
170150000 -0.193108336  0.296903936  0.266712992  0.576310144 0 0 0 0
172140000 -0.184841344  0.298175232  0.290700960  0.576460800 0 0 0 0
174130000 -0.176854640  0.299313024  0.314116512  0.575605184 0 0 0 0
176120000 -0.168913120  0.299985376  0.337112672  0.573581632 0 0 0 0
178110000 -0.161066272  0.300462208  0.359425216  0.570867776 0 0 0 0
180100000 -0.153319952  0.300647008  0.381209120  0.567291008 0 0 0 0
182090000 -0.145671008  0.300484896  0.402362048  0.562949568 0 0 0 0
184080000 -0.138345680  0.300161408  0.422736064  0.558009536 0 0 0 0
186070000 -0.130944584  0.299551008  0.442806368  0.552333376 0 0 0 0
188060000 -0.123748920  0.298853536  0.462055296  0.546119680 0 0 0 0
190050000 -0.116740552  0.297884448  0.480710720  0.539272256 0 0 0 0
192040000 -0.109971952  0.296548128  0.498854400  0.531954752 0 0 0 0
194030000 -0.103296272  0.295394048  0.516487072  0.524174496 0 0 0 0
196020000 -0.096828864  0.293810848  0.533900448  0.515973920 0 0 0 0
198010000 -0.090241848  0.292300800  0.550294528  0.507533376 0 0 0 0
200000000 -0.084049960  0.290559584  0.566331200  0.498676384 0 0 0 0
