!File created by NanoVNA
# Hz S RI R 50
1000000 -0.003353920  0.000522069
2990000 -0.002408806  0.001564873
4980000 -0.001040827  0.003220944
6970000  0.001386954  0.006625406
8960000  0.007545707  0.012943210
10950000  0.021835876  0.018218752
12940000  0.042941720  0.016085802
14930000  0.065880476  0.004639413
16920000  0.086269048 -0.014746730
18910000  0.102216488 -0.039914192
20900000  0.112599520 -0.068326264
22890000  0.117518432 -0.098375656
24880000  0.117379832 -0.128957288
26870000  0.112699432 -0.159151440
28860000  0.104024400 -0.188340528
30850000  0.091912680 -0.216032224
32840000  0.076839336 -0.241758384
34830000  0.059199880 -0.265387184
36820000  0.039602204 -0.287003424
38810000  0.018303438 -0.306488288
40800000 -0.004194265 -0.323876256
42790000 -0.027563760 -0.339245472
44780000 -0.051459180 -0.352743552
46770000 -0.075774952 -0.364958624
48760000 -0.100515648 -0.376183744
50750000 -0.125801992 -0.386643392
52740000 -0.151964672 -0.396437280
54730000 -0.179347184 -0.405699584
56720000 -0.208367632 -0.414495072
58710000 -0.239561008 -0.422852480
60700000 -0.273339616 -0.430411040
62690000 -0.310402592 -0.436611712
64680000 -0.351120800 -0.440855520
66670000 -0.396188256 -0.442209440
68660000 -0.446038752 -0.439509536
70650000 -0.500982176 -0.431060320
72640000 -0.561140608 -0.414967104
74630000 -0.626064960 -0.388611392
76620000 -0.694471104 -0.348638240
78610000 -0.763568640 -0.291182944
80600000 -0.828357248 -0.212123584
82590000 -0.880388736 -0.108300712
84580000 -0.906979968  0.020027658
86570000 -0.892474560  0.165431056
88560000 -0.823955136  0.308904640
90550000 -0.701330048  0.420503616
92540000 -0.546793856  0.471370272
94530000 -0.399015136  0.453190880
96520000 -0.291257376  0.384770528
98510000 -0.234945808  0.297042112
100500000 -0.222905344  0.215776480
102490000 -0.240121200  0.154998288
104480000 -0.271284896  0.118963928
106470000 -0.304122016  0.105238888
108460000 -0.330760448  0.107775104
110450000 -0.347952128  0.119454008
112440000 -0.356100480  0.134207976
114430000 -0.357427136  0.148301392
116420000 -0.354687360  0.160053280
118410000 -0.350044064  0.169322496
120400000 -0.344891264  0.176595504
122390000 -0.339970048  0.182517872
124380000 -0.335574528  0.187743984
126370000 -0.331584512  0.192740288
128360000 -0.327920736  0.197844208
130350000 -0.325234816  0.203742752
132340000 -0.320808960  0.208813280
134330000 -0.317302656  0.215038784
136320000 -0.313400672  0.221244256
138310000 -0.308459008  0.227108352
140300000 -0.303592672  0.233394480
142290000 -0.298116640  0.239879776
144280000 -0.292362240  0.245958912
146270000 -0.286072896  0.251773264
148260000 -0.279487520  0.257614256
150250000 -0.272520128  0.263022576
152240000 -0.265190336  0.268079344
154230000 -0.257731376  0.272851552
156220000 -0.249972960  0.277168896
158210000 -0.242010592  0.281172320
160200000 -0.234060304  0.284638976
162190000 -0.225874640  0.287874080
164180000 -0.217603920  0.290652672
166170000 -0.209463664  0.293038048
168160000 -0.201169904  0.295171424
170150000 -0.192995488  0.296841920
172140000 -0.185029888  0.298253248
174130000 -0.176831232  0.299241984
176120000 -0.169016432  0.299963200
178110000 -0.161182192  0.300413216
180100000 -0.153513168  0.300608160
182090000 -0.145854800  0.300543584
184080000 -0.138504512  0.300139456
186070000 -0.131022584  0.299596800
188060000 -0.123880960  0.298785472
190050000 -0.116877544  0.297815296
192040000 -0.110056000  0.296669280
194030000 -0.103364480  0.295300288
196020000 -0.096874040  0.293711936
198010000 -0.090388696  0.292276224
200000000 -0.084138848  0.290470112
